!Agilent Technologies,E8364A,US41440334,A.07.50.37
!Agilent E8364A: A.07.50.37
!Date: Wednesday, July 29, 2015 12:12:57
!Correction: S33(Full 1 Port(3)) 
!S1P File: Measurement: S33:
# Hz S  dB   R 50
887500000  -5.155644e+000  -1.524513e+002 
887515625  -5.158775e+000  -1.524589e+002 
887531250  -5.157197e+000  -1.524714e+002 
887546875  -5.155121e+000  -1.525274e+002 
887562500  -5.152016e+000  -1.525134e+002 
887578125  -5.158681e+000  -1.525047e+002 
887593750  -5.156213e+000  -1.525077e+002 
887609375  -5.161894e+000  -1.524928e+002 
887625000  -5.149255e+000  -1.525900e+002 
887640625  -5.154888e+000  -1.525067e+002 
887656250  -5.158556e+000  -1.525263e+002 
887671875  -5.158827e+000  -1.525609e+002 
887687500  -5.158885e+000  -1.525816e+002 
887703125  -5.151695e+000  -1.525669e+002 
887718750  -5.154271e+000  -1.526202e+002 
887734375  -5.159001e+000  -1.526522e+002 
887750000  -5.149224e+000  -1.525773e+002 
887765625  -5.154188e+000  -1.526516e+002 
887781250  -5.148962e+000  -1.526528e+002 
887796875  -5.149487e+000  -1.526635e+002 
887812500  -5.148536e+000  -1.526924e+002 
887828125  -5.155230e+000  -1.526652e+002 
887843750  -5.148270e+000  -1.526700e+002 
887859375  -5.146348e+000  -1.526863e+002 
887875000  -5.147912e+000  -1.527108e+002 
887890625  -5.145007e+000  -1.527097e+002 
887906250  -5.146244e+000  -1.526660e+002 
887921875  -5.153655e+000  -1.527176e+002 
887937500  -5.144311e+000  -1.527554e+002 
887953125  -5.147046e+000  -1.527259e+002 
887968750  -5.138297e+000  -1.527480e+002 
887984375  -5.142940e+000  -1.527490e+002 
888000000  -5.137328e+000  -1.527858e+002 
888015625  -5.145289e+000  -1.527449e+002 
888031250  -5.145707e+000  -1.527754e+002 
888046875  -5.141544e+000  -1.527857e+002 
888062500  -5.139994e+000  -1.527982e+002 
888078125  -5.140365e+000  -1.528345e+002 
888093750  -5.138039e+000  -1.528010e+002 
888109375  -5.142268e+000  -1.528478e+002 
888125000  -5.139795e+000  -1.528577e+002 
888140625  -5.142783e+000  -1.528216e+002 
888156250  -5.137102e+000  -1.528616e+002 
888171875  -5.144037e+000  -1.528446e+002 
888187500  -5.137913e+000  -1.528454e+002 
888203125  -5.135962e+000  -1.528653e+002 
888218750  -5.136242e+000  -1.528921e+002 
888234375  -5.138982e+000  -1.529147e+002 
888250000  -5.133809e+000  -1.529096e+002 
888265625  -5.137912e+000  -1.528972e+002 
888281250  -5.138656e+000  -1.529268e+002 
888296875  -5.134694e+000  -1.529545e+002 
888312500  -5.131988e+000  -1.529404e+002 
888328125  -5.132151e+000  -1.529635e+002 
888343750  -5.128784e+000  -1.529545e+002 
888359375  -5.129450e+000  -1.529564e+002 
888375000  -5.135522e+000  -1.529670e+002 
888390625  -5.132636e+000  -1.529720e+002 
888406250  -5.128338e+000  -1.530003e+002 
888421875  -5.130908e+000  -1.530052e+002 
888437500  -5.129430e+000  -1.530039e+002 
888453125  -5.125133e+000  -1.530501e+002 
888468750  -5.125150e+000  -1.530585e+002 
888484375  -5.128121e+000  -1.530239e+002 
888500000  -5.128195e+000  -1.530513e+002 
888515625  -5.127430e+000  -1.530451e+002 
888531250  -5.126138e+000  -1.530645e+002 
888546875  -5.129577e+000  -1.530634e+002 
888562500  -5.122746e+000  -1.531071e+002 
888578125  -5.125294e+000  -1.530732e+002 
888593750  -5.123856e+000  -1.531046e+002 
888609375  -5.126572e+000  -1.530995e+002 
888625000  -5.128943e+000  -1.531172e+002 
888640625  -5.121603e+000  -1.531627e+002 
888656250  -5.123354e+000  -1.531242e+002 
888671875  -5.126533e+000  -1.531388e+002 
888687500  -5.132991e+000  -1.531751e+002 
888703125  -5.117473e+000  -1.531376e+002 
888718750  -5.120307e+000  -1.531802e+002 
888734375  -5.115416e+000  -1.531640e+002 
888750000  -5.122048e+000  -1.531868e+002 
888765625  -5.124862e+000  -1.531967e+002 
888781250  -5.111588e+000  -1.532103e+002 
888796875  -5.113271e+000  -1.532200e+002 
888812500  -5.114445e+000  -1.531740e+002 
888828125  -5.116002e+000  -1.532582e+002 
888843750  -5.113735e+000  -1.532397e+002 
888859375  -5.117796e+000  -1.532397e+002 
888875000  -5.117280e+000  -1.532721e+002 
888890625  -5.109724e+000  -1.532432e+002 
888906250  -5.115681e+000  -1.532643e+002 
888921875  -5.114999e+000  -1.533006e+002 
888937500  -5.110278e+000  -1.532708e+002 
888953125  -5.119400e+000  -1.532879e+002 
888968750  -5.114091e+000  -1.532934e+002 
888984375  -5.115528e+000  -1.533396e+002 
889000000  -5.108663e+000  -1.533304e+002 
889015625  -5.118589e+000  -1.533530e+002 
889031250  -5.107188e+000  -1.533335e+002 
889046875  -5.107667e+000  -1.533747e+002 
889062500  -5.107959e+000  -1.533705e+002 
889078125  -5.105310e+000  -1.533541e+002 
889093750  -5.106894e+000  -1.533875e+002 
889109375  -5.103324e+000  -1.534197e+002 
889125000  -5.108978e+000  -1.534159e+002 
889140625  -5.114239e+000  -1.534191e+002 
889156250  -5.105359e+000  -1.534020e+002 
889171875  -5.102696e+000  -1.534533e+002 
889187500  -5.097395e+000  -1.534484e+002 
889203125  -5.108724e+000  -1.534441e+002 
889218750  -5.103003e+000  -1.534531e+002 
889234375  -5.103114e+000  -1.534223e+002 
889250000  -5.100551e+000  -1.534654e+002 
889265625  -5.109100e+000  -1.534678e+002 
889281250  -5.101929e+000  -1.534883e+002 
889296875  -5.109490e+000  -1.534879e+002 
889312500  -5.099400e+000  -1.535297e+002 
889328125  -5.101325e+000  -1.534958e+002 
889343750  -5.094622e+000  -1.535407e+002 
889359375  -5.103980e+000  -1.535538e+002 
889375000  -5.099120e+000  -1.535432e+002 
889390625  -5.097433e+000  -1.535424e+002 
889406250  -5.099283e+000  -1.535228e+002 
889421875  -5.096491e+000  -1.535753e+002 
889437500  -5.101025e+000  -1.535551e+002 
889453125  -5.097477e+000  -1.535829e+002 
889468750  -5.095469e+000  -1.535875e+002 
889484375  -5.095323e+000  -1.535950e+002 
889500000  -5.099075e+000  -1.536060e+002 
889515625  -5.092762e+000  -1.536260e+002 
889531250  -5.094402e+000  -1.536267e+002 
889546875  -5.095068e+000  -1.536131e+002 
889562500  -5.090870e+000  -1.536360e+002 
889578125  -5.095400e+000  -1.536582e+002 
889593750  -5.084545e+000  -1.536634e+002 
889609375  -5.092423e+000  -1.536331e+002 
889625000  -5.093915e+000  -1.536971e+002 
889640625  -5.092441e+000  -1.536676e+002 
889656250  -5.086607e+000  -1.537088e+002 
889671875  -5.087965e+000  -1.537065e+002 
889687500  -5.088544e+000  -1.537449e+002 
889703125  -5.085359e+000  -1.537289e+002 
889718750  -5.086644e+000  -1.537568e+002 
889734375  -5.096385e+000  -1.537872e+002 
889750000  -5.087099e+000  -1.537607e+002 
889765625  -5.085932e+000  -1.537136e+002 
889781250  -5.085862e+000  -1.537746e+002 
889796875  -5.089070e+000  -1.537726e+002 
889812500  -5.091429e+000  -1.538312e+002 
889828125  -5.085665e+000  -1.537937e+002 
889843750  -5.086397e+000  -1.537954e+002 
889859375  -5.082057e+000  -1.538142e+002 
889875000  -5.078483e+000  -1.538078e+002 
889890625  -5.084907e+000  -1.538232e+002 
889906250  -5.083344e+000  -1.538347e+002 
889921875  -5.082407e+000  -1.538242e+002 
889937500  -5.081139e+000  -1.538461e+002 
889953125  -5.080245e+000  -1.538830e+002 
889968750  -5.081525e+000  -1.538736e+002 
889984375  -5.086211e+000  -1.538752e+002 
890000000  -5.076835e+000  -1.539386e+002 
890015625  -5.079241e+000  -1.539288e+002 
890031250  -5.075293e+000  -1.539370e+002 
890046875  -5.077592e+000  -1.539045e+002 
890062500  -5.077553e+000  -1.538949e+002 
890078125  -5.079246e+000  -1.539216e+002 
890093750  -5.076587e+000  -1.539150e+002 
890109375  -5.079488e+000  -1.539268e+002 
890125000  -5.074442e+000  -1.539618e+002 
890140625  -5.075713e+000  -1.539758e+002 
890156250  -5.080397e+000  -1.539974e+002 
890171875  -5.077821e+000  -1.539737e+002 
890187500  -5.074200e+000  -1.539899e+002 
890203125  -5.073462e+000  -1.540178e+002 
890218750  -5.070767e+000  -1.540341e+002 
890234375  -5.073337e+000  -1.540354e+002 
890250000  -5.067415e+000  -1.540248e+002 
890265625  -5.067558e+000  -1.540447e+002 
890281250  -5.069026e+000  -1.540703e+002 
890296875  -5.072001e+000  -1.540501e+002 
890312500  -5.067815e+000  -1.540498e+002 
890328125  -5.068405e+000  -1.540824e+002 
890343750  -5.074618e+000  -1.541020e+002 
890359375  -5.069610e+000  -1.540777e+002 
890375000  -5.072603e+000  -1.540914e+002 
890390625  -5.065052e+000  -1.541140e+002 
890406250  -5.065631e+000  -1.540986e+002 
890421875  -5.069314e+000  -1.541290e+002 
890437500  -5.065558e+000  -1.541447e+002 
890453125  -5.063619e+000  -1.541490e+002 
890468750  -5.061864e+000  -1.541406e+002 
890484375  -5.061845e+000  -1.541595e+002 
890500000  -5.059759e+000  -1.541773e+002 
890515625  -5.060112e+000  -1.541636e+002 
890531250  -5.058218e+000  -1.542231e+002 
890546875  -5.060691e+000  -1.542338e+002 
890562500  -5.061575e+000  -1.542058e+002 
890578125  -5.065549e+000  -1.542158e+002 
890593750  -5.060576e+000  -1.542396e+002 
890609375  -5.058248e+000  -1.542260e+002 
890625000  -5.052487e+000  -1.542703e+002 
890640625  -5.063955e+000  -1.542601e+002 
890656250  -5.059255e+000  -1.542498e+002 
890671875  -5.060280e+000  -1.542609e+002 
890687500  -5.054339e+000  -1.542788e+002 
890703125  -5.057971e+000  -1.542902e+002 
890718750  -5.054811e+000  -1.543280e+002 
890734375  -5.057038e+000  -1.542917e+002 
890750000  -5.057164e+000  -1.543153e+002 
890765625  -5.056469e+000  -1.543509e+002 
890781250  -5.054701e+000  -1.543351e+002 
890796875  -5.056272e+000  -1.543483e+002 
890812500  -5.049057e+000  -1.543579e+002 
890828125  -5.053831e+000  -1.543754e+002 
890843750  -5.057920e+000  -1.544177e+002 
890859375  -5.056413e+000  -1.543794e+002 
890875000  -5.047361e+000  -1.543903e+002 
890890625  -5.046639e+000  -1.543731e+002 
890906250  -5.049387e+000  -1.543868e+002 
890921875  -5.051663e+000  -1.544296e+002 
890937500  -5.046180e+000  -1.544207e+002 
890953125  -5.046343e+000  -1.543995e+002 
890968750  -5.042797e+000  -1.544540e+002 
890984375  -5.048550e+000  -1.544317e+002 
891000000  -5.050793e+000  -1.544791e+002 
891015625  -5.046712e+000  -1.544734e+002 
891031250  -5.047110e+000  -1.544848e+002 
891046875  -5.056271e+000  -1.544962e+002 
891062500  -5.043189e+000  -1.545013e+002 
891078125  -5.045936e+000  -1.544865e+002 
891093750  -5.046663e+000  -1.544886e+002 
891109375  -5.039861e+000  -1.545164e+002 
891125000  -5.046758e+000  -1.545550e+002 
891140625  -5.040821e+000  -1.545236e+002 
891156250  -5.041063e+000  -1.545565e+002 
891171875  -5.041660e+000  -1.545769e+002 
891187500  -5.045251e+000  -1.545455e+002 
891203125  -5.043777e+000  -1.545633e+002 
891218750  -5.043164e+000  -1.545901e+002 
891234375  -5.038166e+000  -1.545914e+002 
891250000  -5.033743e+000  -1.546242e+002 
891265625  -5.043739e+000  -1.546374e+002 
891281250  -5.034989e+000  -1.546168e+002 
891296875  -5.041275e+000  -1.546675e+002 
891312500  -5.038967e+000  -1.546183e+002 
891328125  -5.036828e+000  -1.546084e+002 
891343750  -5.038444e+000  -1.546713e+002 
891359375  -5.029863e+000  -1.546378e+002 
891375000  -5.032332e+000  -1.546974e+002 
891390625  -5.028366e+000  -1.547021e+002 
891406250  -5.030064e+000  -1.546462e+002 
891421875  -5.040904e+000  -1.547181e+002 
891437500  -5.036038e+000  -1.547283e+002 
891453125  -5.031445e+000  -1.547155e+002 
891468750  -5.032982e+000  -1.547400e+002 
891484375  -5.031672e+000  -1.547613e+002 
891500000  -5.030804e+000  -1.547257e+002 
891515625  -5.028149e+000  -1.547528e+002 
891531250  -5.027018e+000  -1.547950e+002 
891546875  -5.028316e+000  -1.547365e+002 
891562500  -5.028894e+000  -1.548005e+002 
891578125  -5.029933e+000  -1.548004e+002 
891593750  -5.033131e+000  -1.547909e+002 
891609375  -5.025438e+000  -1.547777e+002 
891625000  -5.024605e+000  -1.547815e+002 
891640625  -5.027788e+000  -1.548064e+002 
891656250  -5.029923e+000  -1.548565e+002 
891671875  -5.026945e+000  -1.548077e+002 
891687500  -5.029810e+000  -1.548275e+002 
891703125  -5.025175e+000  -1.548689e+002 
891718750  -5.026242e+000  -1.548397e+002 
891734375  -5.026976e+000  -1.548773e+002 
891750000  -5.020469e+000  -1.548721e+002 
891765625  -5.022758e+000  -1.548621e+002 
891781250  -5.022015e+000  -1.549585e+002 
891796875  -5.023967e+000  -1.548740e+002 
891812500  -5.021287e+000  -1.549361e+002 
891828125  -5.023892e+000  -1.549368e+002 
891843750  -5.023423e+000  -1.549054e+002 
891859375  -5.017196e+000  -1.549463e+002 
891875000  -5.018757e+000  -1.549734e+002 
891890625  -5.016388e+000  -1.549429e+002 
891906250  -5.016052e+000  -1.549660e+002 
891921875  -5.014989e+000  -1.549759e+002 
891937500  -5.015873e+000  -1.549428e+002 
891953125  -5.014959e+000  -1.550105e+002 
891968750  -5.014381e+000  -1.550089e+002 
891984375  -5.013063e+000  -1.550029e+002 
892000000  -5.019739e+000  -1.549978e+002 
892015625  -5.017102e+000  -1.550309e+002 
892031250  -5.019332e+000  -1.550255e+002 
892046875  -5.013186e+000  -1.550165e+002 
892062500  -5.016562e+000  -1.550887e+002 
892078125  -5.012552e+000  -1.550551e+002 
892093750  -5.016240e+000  -1.551055e+002 
892109375  -5.010913e+000  -1.550948e+002 
892125000  -5.010158e+000  -1.551154e+002 
892140625  -5.014399e+000  -1.550791e+002 
892156250  -5.009994e+000  -1.550898e+002 
892171875  -5.013711e+000  -1.551106e+002 
892187500  -5.010917e+000  -1.551306e+002 
892203125  -5.008411e+000  -1.551635e+002 
892218750  -5.008081e+000  -1.551791e+002 
892234375  -5.009367e+000  -1.551465e+002 
892250000  -5.011166e+000  -1.551623e+002 
892265625  -5.001883e+000  -1.551521e+002 
892281250  -5.008287e+000  -1.551344e+002 
892296875  -5.001397e+000  -1.551917e+002 
892312500  -5.010396e+000  -1.551879e+002 
892328125  -5.009019e+000  -1.552237e+002 
892343750  -5.003622e+000  -1.552238e+002 
892359375  -5.007596e+000  -1.552390e+002 
892375000  -5.004221e+000  -1.552432e+002 
892390625  -5.006807e+000  -1.552599e+002 
892406250  -5.008406e+000  -1.552539e+002 
892421875  -5.000249e+000  -1.552804e+002 
892437500  -5.002090e+000  -1.552454e+002 
892453125  -5.000510e+000  -1.552935e+002 
892468750  -5.001934e+000  -1.552769e+002 
892484375  -5.001372e+000  -1.552537e+002 
892500000  -5.000279e+000  -1.552844e+002 
892515625  -5.001029e+000  -1.553208e+002 
892531250  -5.002978e+000  -1.553225e+002 
892546875  -5.002340e+000  -1.553220e+002 
892562500  -4.999491e+000  -1.553327e+002 
892578125  -4.996808e+000  -1.553860e+002 
892593750  -4.994060e+000  -1.553261e+002 
892609375  -5.001046e+000  -1.553597e+002 
892625000  -4.997888e+000  -1.553721e+002 
892640625  -4.991338e+000  -1.553537e+002 
892656250  -4.992128e+000  -1.554117e+002 
892671875  -4.994376e+000  -1.553708e+002 
892687500  -4.990870e+000  -1.554077e+002 
892703125  -4.994255e+000  -1.553835e+002 
892718750  -4.994471e+000  -1.554684e+002 
892734375  -4.996508e+000  -1.554352e+002 
892750000  -4.991999e+000  -1.554211e+002 
892765625  -4.992550e+000  -1.554478e+002 
892781250  -4.989123e+000  -1.554760e+002 
892796875  -4.994992e+000  -1.554582e+002 
892812500  -4.981579e+000  -1.554852e+002 
892828125  -4.993437e+000  -1.554512e+002 
892843750  -4.986404e+000  -1.555180e+002 
892859375  -4.989279e+000  -1.555108e+002 
892875000  -4.984288e+000  -1.554908e+002 
892890625  -4.987036e+000  -1.555446e+002 
892906250  -4.991292e+000  -1.555392e+002 
892921875  -4.993107e+000  -1.555365e+002 
892937500  -4.984401e+000  -1.555385e+002 
892953125  -4.988975e+000  -1.555510e+002 
892968750  -4.986579e+000  -1.555646e+002 
892984375  -4.981119e+000  -1.555230e+002 
893000000  -4.983192e+000  -1.555749e+002 
893015625  -4.980054e+000  -1.555990e+002 
893031250  -4.979174e+000  -1.555938e+002 
893046875  -4.985604e+000  -1.556114e+002 
893062500  -4.981186e+000  -1.556206e+002 
893078125  -4.977952e+000  -1.556025e+002 
893093750  -4.981458e+000  -1.556454e+002 
893109375  -4.982400e+000  -1.556579e+002 
893125000  -4.976393e+000  -1.556268e+002 
893140625  -4.976697e+000  -1.556576e+002 
893156250  -4.971986e+000  -1.556576e+002 
893171875  -4.976296e+000  -1.556923e+002 
893187500  -4.975741e+000  -1.556660e+002 
893203125  -4.984192e+000  -1.557113e+002 
893218750  -4.969192e+000  -1.556683e+002 
893234375  -4.976414e+000  -1.556904e+002 
893250000  -4.978285e+000  -1.557144e+002 
893265625  -4.975637e+000  -1.557329e+002 
893281250  -4.979020e+000  -1.557115e+002 
893296875  -4.971240e+000  -1.557559e+002 
893312500  -4.970885e+000  -1.557761e+002 
893328125  -4.971123e+000  -1.557470e+002 
893343750  -4.971534e+000  -1.557921e+002 
893359375  -4.978648e+000  -1.557798e+002 
893375000  -4.972450e+000  -1.557896e+002 
893390625  -4.972451e+000  -1.557945e+002 
893406250  -4.970265e+000  -1.558029e+002 
893421875  -4.971973e+000  -1.557940e+002 
893437500  -4.968885e+000  -1.558444e+002 
893453125  -4.973386e+000  -1.558759e+002 
893468750  -4.967536e+000  -1.558613e+002 
893484375  -4.969110e+000  -1.558684e+002 
893500000  -4.970268e+000  -1.558425e+002 
893515625  -4.965601e+000  -1.558473e+002 
893531250  -4.970887e+000  -1.558745e+002 
893546875  -4.966096e+000  -1.558944e+002 
893562500  -4.965566e+000  -1.558748e+002 
893578125  -4.965024e+000  -1.559162e+002 
893593750  -4.970309e+000  -1.559041e+002 
893609375  -4.960879e+000  -1.559668e+002 
893625000  -4.965644e+000  -1.559565e+002 
893640625  -4.965228e+000  -1.559150e+002 
893656250  -4.958425e+000  -1.559215e+002 
893671875  -4.957756e+000  -1.559585e+002 
893687500  -4.962128e+000  -1.559534e+002 
893703125  -4.963086e+000  -1.559858e+002 
893718750  -4.961482e+000  -1.559659e+002 
893734375  -4.961005e+000  -1.560106e+002 
893750000  -4.961146e+000  -1.560017e+002 
893765625  -4.957134e+000  -1.560181e+002 
893781250  -4.957355e+000  -1.560367e+002 
893796875  -4.957862e+000  -1.560281e+002 
893812500  -4.952904e+000  -1.560492e+002 
893828125  -4.958045e+000  -1.560039e+002 
893843750  -4.956678e+000  -1.560309e+002 
893859375  -4.952723e+000  -1.560342e+002 
893875000  -4.956371e+000  -1.561005e+002 
893890625  -4.952571e+000  -1.560910e+002 
893906250  -4.948748e+000  -1.560623e+002 
893921875  -4.952702e+000  -1.560636e+002 
893937500  -4.961101e+000  -1.561222e+002 
893953125  -4.957091e+000  -1.561035e+002 
893968750  -4.953896e+000  -1.561109e+002 
893984375  -4.950064e+000  -1.561178e+002 
894000000  -4.951063e+000  -1.561107e+002 
894015625  -4.952454e+000  -1.561427e+002 
894031250  -4.947840e+000  -1.561863e+002 
894046875  -4.952121e+000  -1.561564e+002 
894062500  -4.947117e+000  -1.562098e+002 
894078125  -4.951298e+000  -1.561857e+002 
894093750  -4.945547e+000  -1.562068e+002 
894109375  -4.953400e+000  -1.561709e+002 
894125000  -4.944733e+000  -1.562207e+002 
894140625  -4.951045e+000  -1.561915e+002 
894156250  -4.944497e+000  -1.562301e+002 
894171875  -4.946481e+000  -1.562496e+002 
894187500  -4.942744e+000  -1.562022e+002 
894203125  -4.952499e+000  -1.562532e+002 
894218750  -4.945138e+000  -1.562673e+002 
894234375  -4.945669e+000  -1.562566e+002 
894250000  -4.948212e+000  -1.562544e+002 
894265625  -4.947182e+000  -1.562566e+002 
894281250  -4.947433e+000  -1.563290e+002 
894296875  -4.946913e+000  -1.562897e+002 
894312500  -4.944697e+000  -1.563052e+002 
894328125  -4.946966e+000  -1.563329e+002 
894343750  -4.946316e+000  -1.563539e+002 
894359375  -4.945389e+000  -1.563818e+002 
894375000  -4.935766e+000  -1.563417e+002 
894390625  -4.939715e+000  -1.563174e+002 
894406250  -4.940971e+000  -1.563463e+002 
894421875  -4.943294e+000  -1.563545e+002 
894437500  -4.932188e+000  -1.563920e+002 
894453125  -4.938240e+000  -1.563979e+002 
894468750  -4.936951e+000  -1.563935e+002 
894484375  -4.930186e+000  -1.563930e+002 
894500000  -4.939035e+000  -1.564620e+002 
894515625  -4.935906e+000  -1.564174e+002 
894531250  -4.934285e+000  -1.564198e+002 
894546875  -4.936075e+000  -1.564302e+002 
894562500  -4.939555e+000  -1.564593e+002 
894578125  -4.933081e+000  -1.564526e+002 
894593750  -4.932862e+000  -1.564650e+002 
894609375  -4.929260e+000  -1.565114e+002 
894625000  -4.936664e+000  -1.565110e+002 
894640625  -4.933144e+000  -1.564812e+002 
894656250  -4.929322e+000  -1.564782e+002 
894671875  -4.934779e+000  -1.565173e+002 
