#  HZ   S   RI   R     50.0 
! Rohde & Schwarz ZVL 
! 
! 
! 
 8.970000000000000E8    -5.334917108092284E-1  -2.617144327077462E-1  
 8.970600000000000E8    -5.333789164733044E-1  -2.614456304080925E-1  
 8.971200000000000E8    -5.335194913274197E-1  -2.609579202501710E-1  
 8.971800000000000E8    -5.341999295503168E-1  -2.605189010240454E-1  
 8.972400000000000E8    -5.345226715923648E-1  -2.597789860936504E-1  
 8.973000000000000E8    -5.343689087216141E-1  -2.602444197802645E-1  
 8.973600000000000E8    -5.355252474421280E-1  -2.596468100299227E-1  
 8.974200000000000E8    -5.355157212242661E-1  -2.595084914860894E-1  
 8.974800000000000E8    -5.360672497073020E-1  -2.590724463670637E-1  
 8.975400000000000E8    -5.357114317226118E-1  -2.592672764922655E-1  
 8.976000000000000E8    -5.354234000081436E-1  -2.589147840243288E-1  
 8.976600000000000E8    -5.361061488208330E-1  -2.586546262993863E-1  
 8.977200000000000E8    -5.368048151790817E-1  -2.580747128276950E-1  
 8.977800000000000E8    -5.373285864644664E-1  -2.586947582985307E-1  
 8.978400000000000E8    -5.370437923355380E-1  -2.584763640411300E-1  
 8.979000000000000E8    -5.381074499107388E-1  -2.567644422172891E-1  
 8.979600000000000E8    -5.372878216447250E-1  -2.568280020006595E-1  
 8.980200000000000E8    -5.373483176602517E-1  -2.578505142654108E-1  
 8.980800000000000E8    -5.377281425773558E-1  -2.573461401540006E-1  
 8.981400000000000E8    -5.381722963889596E-1  -2.576356812796215E-1  
 8.982000000000000E8    -5.386407203691234E-1  -2.567311876660265E-1  
 8.982600000000000E8    -5.385362669270950E-1  -2.569050816529671E-1  
 8.983200000000000E8    -5.395235250336433E-1  -2.554608188268129E-1  
 8.983800000000000E8    -5.404188609309745E-1  -2.550499510531751E-1  
 8.984400000000000E8    -5.396514801890684E-1  -2.558059021377233E-1  
 8.985000000000000E8    -5.392145510342558E-1  -2.566856954455699E-1  
 8.985600000000000E8    -5.409210989368476E-1  -2.542850269444070E-1  
 8.986200000000000E8    -5.415288282375653E-1  -2.534496709043924E-1  
 8.986800000000000E8    -5.402890872229219E-1  -2.552513093620752E-1  
 8.987400000000000E8    -5.404302203096182E-1  -2.553800421754417E-1  
 8.988000000000000E8    -5.412116106275962E-1  -2.538045748169284E-1  
 8.988600000000000E8    -5.417399863912672E-1  -2.539478282352361E-1  
 8.989200000000000E8    -5.423568010688369E-1  -2.527991125545259E-1  
 8.989800000000000E8    -5.422817751698542E-1  -2.531742471401377E-1  
 8.990400000000000E8    -5.421855244047826E-1  -2.529395189887398E-1  
 8.991000000000000E8    -5.422619748777251E-1  -2.530957618099253E-1  
 8.991600000000000E8    -5.424116280638042E-1  -2.525546811118383E-1  
 8.992200000000000E8    -5.435969668253877E-1  -2.520790525898202E-1  
 8.992800000000000E8    -5.431585196191084E-1  -2.531055823810915E-1  
 8.993400000000000E8    -5.441694250981050E-1  -2.514937422838442E-1  
 8.994000000000000E8    -5.447866439970494E-1  -2.510774842156076E-1  
 8.994600000000000E8    -5.441429550628638E-1  -2.514449586844689E-1  
 8.995200000000000E8    -5.450111603194704E-1  -2.505028429717545E-1  
 8.995800000000000E8    -5.450338448563221E-1  -2.497403876813059E-1  
 8.996400000000000E8    -5.447671915268335E-1  -2.506354195195750E-1  
 8.997000000000000E8    -5.443481393055375E-1  -2.518931967095140E-1  
 8.997600000000000E8    -5.452182081415261E-1  -2.499722087834473E-1  
 8.998200000000000E8    -5.456927287764359E-1  -2.490191372713002E-1  
 8.998800000000000E8    -5.459010882417671E-1  -2.500922046475519E-1  
 8.999400000000000E8    -5.451900838392058E-1  -2.507233857097946E-1  
 9.000000000000000E8    -5.469546199153289E-1  -2.482881135433427E-1  
 9.000600000000000E8    -5.471696074803287E-1  -2.490805014529051E-1  
 9.001200000000000E8    -5.461759305909609E-1  -2.494357164531838E-1  
 9.001800000000000E8    -5.468667662391999E-1  -2.482154586965434E-1  
 9.002400000000000E8    -5.476909859981973E-1  -2.481214516386563E-1  
 9.003000000000000E8    -5.482679000588119E-1  -2.471984134903555E-1  
 9.003600000000000E8    -5.476165894092413E-1  -2.482100424041805E-1  
 9.004200000000000E8    -5.482004709694280E-1  -2.474247279673153E-1  
 9.004800000000000E8    -5.483022248671413E-1  -2.475886535476141E-1  
 9.005400000000000E8    -5.484914112624106E-1  -2.469459968117675E-1  
 9.006000000000000E8    -5.486117836496107E-1  -2.467779953147381E-1  
 9.006600000000000E8    -5.494294938168550E-1  -2.456964621267015E-1  
 9.007200000000000E8    -5.496166917898496E-1  -2.454509421600638E-1  
 9.007800000000000E8    -5.503612943417607E-1  -2.456503253014009E-1  
 9.008400000000000E8    -5.506009084373912E-1  -2.446968471718185E-1  
 9.009000000000000E8    -5.496489855925714E-1  -2.452090741480515E-1  
 9.009600000000000E8    -5.509135765930050E-1  -2.444867384173630E-1  
 9.010200000000000E8    -5.509356847650156E-1  -2.448227224232533E-1  
 9.010800000000000E8    -5.510376314951966E-1  -2.452463787823930E-1  
 9.011400000000000E8    -5.510422960662000E-1  -2.455372474646268E-1  
 9.012000000000000E8    -5.508800415402676E-1  -2.446446853778142E-1  
 9.012600000000000E8    -5.519549889481781E-1  -2.439354733886137E-1  
 9.013200000000000E8    -5.525073723512892E-1  -2.427466441176034E-1  
 9.013800000000000E8    -5.518603615012695E-1  -2.438115765820901E-1  
 9.014400000000000E8    -5.518990263645434E-1  -2.430092597852996E-1  
 9.015000000000000E8    -5.528749112977737E-1  -2.429389263235096E-1  
 9.015600000000000E8    -5.535373337409328E-1  -2.413349985747557E-1  
 9.016200000000000E8    -5.535830712241394E-1  -2.415665801118889E-1  
 9.016800000000000E8    -5.536627665821662E-1  -2.413275646589572E-1  
 9.017400000000000E8    -5.536376021730354E-1  -2.415099356110533E-1  
 9.018000000000000E8    -5.538133978347032E-1  -2.413735984427911E-1  
 9.018600000000000E8    -5.543381051842994E-1  -2.412340453525630E-1  
 9.019200000000000E8    -5.545028129284806E-1  -2.400745642180388E-1  
 9.019800000000000E8    -5.553192261870819E-1  -2.404308489200783E-1  
 9.020400000000000E8    -5.554311088328746E-1  -2.396444404882643E-1  
 9.021000000000000E8    -5.561022198881704E-1  -2.386914928875604E-1  
 9.021600000000000E8    -5.554880981950873E-1  -2.391552620851059E-1  
 9.022200000000000E8    -5.553163249620460E-1  -2.393565970798653E-1  
 9.022800000000000E8    -5.563960047980615E-1  -2.390346248044797E-1  
 9.023400000000000E8    -5.568526132886101E-1  -2.385324270934903E-1  
 9.024000000000000E8    -5.557606836835304E-1  -2.401035371375573E-1  
 9.024600000000000E8    -5.567778442300867E-1  -2.390914592232276E-1  
 9.025200000000000E8    -5.574798674144758E-1  -2.374372160562503E-1  
 9.025800000000000E8    -5.579766711588760E-1  -2.379702504856326E-1  
 9.026400000000000E8    -5.577359172971981E-1  -2.376810656679691E-1  
 9.027000000000000E8    -5.581675407160213E-1  -2.370006136933515E-1  
 9.027600000000000E8    -5.581337856315367E-1  -2.366274536448219E-1  
 9.028200000000000E8    -5.583423160257562E-1  -2.371701204796428E-1  
 9.028800000000000E8    -5.588509914225127E-1  -2.358110572680290E-1  
 9.029400000000000E8    -5.598130508793403E-1  -2.352543220069004E-1  
 9.030000000000000E8    -5.595421644709764E-1  -2.357081238998793E-1  
